/Vout+ X,/Vout+ Y,/Vout- X,/Vout- Y
0,1.024175015863712,0,1.799999999574593
1,1.0270802719789,1,1.7969101000123
2,1.029987354368616,2,1.793820185189313
3,1.032896046060519,3,1.790730346563914
4,1.03580635487134,4,1.787640554201981
5,1.038718288898763,5,1.784550808141182
6,1.0416318591337,6,1.781461107862073
7,1.044547065555901,7,1.7783714550176
8,1.047497962816093,8,1.77519333189945
9,1.050416810926965,9,1.77210376592035
10,1.053337333607447,10,1.769014241011532
11,1.056259540151645,11,1.765924766741728
12,1.059183446670776,12,1.762835336263809
13,1.062109042810252,13,1.759745954129414
14,1.065036358946819,14,1.756656618426825
15,1.067965396886813,15,1.75356736022217
16,1.070859306808007,16,1.750566667656262
17,1.073791436305019,17,1.747477481733673
18,1.076725312520142,18,1.744388343176439
19,1.079660945168255,19,1.741299252036048
20,1.082598348709937,20,1.738210208506782
21,1.085537524662296,21,1.735121212726758
22,1.088478493260388,22,1.732032264476256
23,1.09142126267555,23,1.72894336425395
24,1.094406011970367,24,1.72576586363927
25,1.097352868498235,25,1.722677058085505
26,1.100301569303683,26,1.719588285862971
27,1.103252126303318,27,1.716499569396103
28,1.106204552567913,28,1.713410901449023
29,1.109158856842688,29,1.710322282036006
30,1.112115054633347,30,1.707233711378501
31,1.115073157045793,31,1.704145189550989
32,1.117989135265152,32,1.701145438025724
33,1.120950554913592,33,1.698057023647863
34,1.123913905796734,34,1.69496865863846
35,1.126879199639236,35,1.691880343085779
36,1.129846449551197,36,1.688792077231149
37,1.132815664265358,37,1.685703861108847
38,1.13578685970893,38,1.682615694967347
39,1.138760043639157,39,1.679527578907728
40,1.141783797439109,40,1.676350716183482
41,1.144761612107366,41,1.673262691133678
42,1.147741462469204,42,1.670174716681593
43,1.150723358985699,43,1.66708679294244
44,1.153707311991036,44,1.663998920189602
45,1.156693331358048,45,1.66091109848468
46,1.1596814459481,46,1.65782332811024
47,1.162671606560548,47,1.654735609196077
48,1.165610071016802,48,1.651736818379723
49,1.168603737696488,49,1.648649213218417
50,1.171599520139215,50,1.645561660255106
51,1.174597365021345,51,1.642474159642888
52,1.177597336836992,52,1.63938671169819
53,1.180599419927679,53,1.636299316519181
54,1.183603637382974,54,1.633211974426759
55,1.186609930963935,55,1.630124685607506
56,1.189678205836594,56,1.626948491148444
57,1.192689469489675,57,1.623861299025074
58,1.1957029501992,58,1.62077416093198
59,1.198718509145242,59,1.617687077071738
60,1.201736236852694,60,1.614600047815547
61,1.204755994305538,61,1.611513078633123
62,1.207777882023453,62,1.608426153963259
63,1.21080185039805,63,1.605339289989553
64,1.213762466297569,64,1.60234152846145
65,1.216788783894603,65,1.599254796528319
66,1.219818053637133,66,1.596168102977212
67,1.222849305949991,67,1.593081475222992
68,1.225882558285969,68,1.589994904666735
69,1.228917745674587,69,1.586908391538133
70,1.231954876574298,70,1.583821936308167
71,1.234993879906134,71,1.580735539295608
72,1.238107919338721,72,1.57756006239133
73,1.241151451993753,73,1.574473771196583
74,1.244196769907905,74,1.571387539430598
75,1.247243798723507,75,1.568301367464677
76,1.250292521876666,76,1.565215255851002
77,1.253342874395464,77,1.562129204925213
78,1.256394821061988,78,1.559043215271996
79,1.259448281906438,79,1.555957287327152
80,1.262423625983274,80,1.552960658003034
81,1.265479257924059,81,1.549874867731949
82,1.268536282423486,82,1.546789140950025
83,1.271594640550307,83,1.543703478171689
84,1.274654277430107,84,1.540617880100499
85,1.277715136591168,85,1.53753234722877
86,1.280777164177428,86,1.534446880307345
87,1.283840305245836,87,1.531361479944994
88,1.286989228924541,88,1.528186807200044
89,1.290054940921242,89,1.525101528779823
90,1.293121575724026,90,1.522016319082419
91,1.296189082966786,91,1.518931178832476
92,1.299257414392058,92,1.515846108955764
93,1.302326523752942,93,1.512761110177565
94,1.305396367138548,94,1.509676183495385
95,1.308466902741051,95,1.506591329777396
96,1.311450231585802,96,1.503595999682375
97,1.314521775582926,97,1.500511309060655
98,1.31759392756874,98,1.497426694618476
99,1.320666650834092,99,1.494342157399864
100,1.323739966177872,100,1.491257698669037
101,1.326813682693461,101,1.488173319505223
102,1.329887932087877,102,1.485089021285419
103,1.332962634163613,103,1.482004805275711
104,1.336127060110466,104,1.478831108326357
105,1.339202692808563,105,1.475747046377432
106,1.342278695713128,106,1.472663071069603
107,1.345355049681404,107,1.469579183962117
108,1.348431767278667,108,1.46649538686637
109,1.351508741552665,109,1.463411681446906
110,1.354586047897755,110,1.460328069699259
111,1.35766364195279,111,1.457244553551919
112,1.360651819090016,112,1.454250818047287
113,1.363729817643708,113,1.451167514280409
114,1.366808176454819,114,1.448084312772726
115,1.369886779744082,115,1.445001215909621
116,1.372965654176157,116,1.441918226384419
117,1.376044678142716,117,1.438835346804157
118,1.379123954280213,118,1.435752580172063
119,1.382203436779365,119,1.432669929495221
120,1.385373019972979,120,1.42949760169958
121,1.388452890442566,121,1.426415179794862
122,1.391532943690596,122,1.423332884684523
123,1.394613172482657,123,1.420250720266679
124,1.397693636597373,124,1.417168690864275
125,1.400774132970585,125,1.414086800842156
126,1.403854853777083,126,1.411005055100539
127,1.406935728233378,127,1.407923458696341
128,1.407923464644498,128,1.406935726813372
129,1.411005056513733,129,1.403854852343767
130,1.414086809647167,130,1.400774131527684
131,1.417168692257452,131,1.397693569287175
132,1.420250721751009,132,1.394613171020318
133,1.42333288605737,133,1.391532942218446
134,1.426415181193213,134,1.388452888961145
135,1.429497603051848,135,1.385373017540993
136,1.432669934792134,136,1.382203435279227
137,1.435752581503187,137,1.379123952770673
138,1.438835348359585,138,1.376044676624467
139,1.441918227694539,139,1.372965615345094
140,1.445001218325055,140,1.369886778208278
141,1.44808431406165,141,1.366808174910223
142,1.451167516376298,142,1.363729816090993
143,1.454250819314872,143,1.360651712992917
144,1.457244836804152,144,1.357663640383347
145,1.460328070945708,145,1.354586046320114
146,1.463411684698082,146,1.351508739967662
147,1.466495388091217,147,1.348431735444537
148,1.469579190281581,148,1.345355048081751
149,1.472663072272721,149,1.342278694106258
150,1.475747052025801,150,1.339202691195327
151,1.478831109507652,151,1.336127058170121
152,1.48200481336152,152,1.332962632540054
153,1.485089022444453,153,1.329887930458566
154,1.488173348050925,154,1.326813681059585
155,1.491257699805298,155,1.323739911055451
156,1.494342176080815,156,1.320666649191669
157,1.497426695733443,157,1.317593925922428
158,1.500511327312508,158,1.314521773933964
159,1.503596000775204,159,1.311450227793603
160,1.506591341329687,160,1.308466901082651
161,1.509676184566347,161,1.305396365478009
162,1.512761139874058,162,1.302326522091726
163,1.515846110004463,163,1.299257412662021
164,1.518931179896762,164,1.296189081305474
165,1.522016320108807,165,1.293121574063271
166,1.525101529824551,166,1.290054939262798
167,1.52818680820407,167,1.286989226990774
168,1.531361501069793,168,1.283840303603131
169,1.534446881288647,169,1.280777162538995
170,1.53753234827088,170,1.277715134959014
171,1.540617881059359,171,1.274654275367718
172,1.543703483136103,172,1.271594638932104
173,1.546789141886407,173,1.268536280812832
174,1.549874869072908,174,1.26547925632321
175,1.552960658916903,175,1.262423620245973
176,1.555957290484313,176,1.259448280312886
177,1.559043216163627,177,1.256394811100346
178,1.562129206167166,178,1.253342872825169
179,1.565215256720053,179,1.250292517916232
180,1.568301369015313,180,1.247243797179561
181,1.571387540277045,181,1.244196759181089
182,1.574473772710488,182,1.241151450478964
183,1.577560063215144,183,1.23810791507099
184,1.580735540133343,184,1.234993878437953
185,1.583821937109036,185,1.231954865143927
186,1.586908392327648,186,1.228917744240228
187,1.589994905444928,187,1.225882547599102
188,1.59308147613619,188,1.22284930455108
189,1.596168103732712,189,1.219818041529806
190,1.599254790858212,190,1.216788782532398
191,1.602341529194248,191,1.213761548810124
192,1.605339292027421,192,1.210801849113522
193,1.608426154673591,193,1.207777880639211
194,1.611513074131541,194,1.204755993004532
195,1.61460004850313,195,1.20173619861294
196,1.617687077818163,196,1.19871850788299
197,1.620774161596796,197,1.195702928963656
198,1.623861303034458,198,1.192689468266244
199,1.626948491790478,199,1.189678130239183
200,1.630124686239122,200,1.186609929792866
201,1.633211975045723,201,1.183603616200464
202,1.636299317131227,202,1.180599418794528
203,1.63938671229434,203,1.177597335689478
204,1.642474160227588,204,1.174597363925553
205,1.645561660828438,205,1.171599499257878
206,1.64864921378031,206,1.168603736637362
207,1.651736818930218,207,1.165610069967146
208,1.654735610461744,208,1.162671605525108
209,1.657823328638157,209,1.159681425570692
210,1.660911099007541,210,1.156693330357983
211,1.663998920694656,211,1.153707310958021
212,1.667086835345678,212,1.150723358020035
213,1.670174717163778,213,1.147741461518122
214,1.673262691620522,214,1.144761611175134
215,1.67635071664279,215,1.141783796206457
216,1.679527582777992,216,1.13876004274987
217,1.682615695403512,217,1.135786857880981
218,1.685703861788294,218,1.132815663406985
219,1.68879207764442,219,1.129846447625987
220,1.691880344250168,220,1.126879198810705
221,1.694968659028828,221,1.123913904948737
222,1.698057025392166,222,1.12095055411383
223,1.701145438393179,223,1.117989134204203
224,1.704145379791685,224,1.115073156262843
225,1.707233711723288,225,1.112115053864566
226,1.710322314755071,226,1.109158856087757
227,1.713410901770882,227,1.106204550685868
228,1.716499571221958,228,1.103252125575097
229,1.719588286161895,229,1.100301568587067
230,1.722677052358407,230,1.097352867795016
231,1.725765863915253,231,1.094406011260849
232,1.728943373258519,232,1.091421262003813
233,1.732032264729046,233,1.088478492599452
234,1.735121240481158,234,1.085537524012839
235,1.738210208736618,235,1.082598344993358
236,1.741299252752931,236,1.079660944540976
237,1.744388343383316,237,1.07672531166968
238,1.747477484196655,238,1.073791435698481
239,1.750566667840174,239,1.070859306012435
240,1.753567330476864,240,1.067965396294594
241,1.756656618588012,241,1.065036357842787
242,1.759745955768266,242,1.062109042236323
243,1.762835336402018,243,1.05918343941463
244,1.765924765775881,244,1.05625953959637
245,1.769014241126763,245,1.053337333056993
246,1.772103766694007,246,1.050416810389301
247,1.775193331991686,247,1.04749796228416
248,1.778371454741198,248,1.04454706504102
249,1.781461107931076,249,1.041631855809669
250,1.784550808038372,250,1.038718288399915
251,1.787640554247989,251,1.035806354378215
252,1.790730347229154,252,1.032896045576917
253,1.793820184991138,253,1.02998735389258
254,1.796910069851354,254,1.027080271515482
255,1.799999999574596,255,1.024174790731941
