/Vout+ X,/Vout+ Y,/Vout- X,/Vout- Y
0,1.79999999955407,0,1.041282334463375
1,1.797001701400967,1,1.044200971757373
2,1.794003377204634,2,1.047120668463672
3,1.791004803263134,3,1.050041437116768
4,1.788005812520206,4,1.052963278390299
5,1.785006530768314,5,1.05588619293536
6,1.782006961074561,6,1.058810181289933
7,1.779007106459947,7,1.061735243942264
8,1.775939497662105,8,1.06471580147984
9,1.772939788377939,9,1.067643396235051
10,1.769939795000416,10,1.07057207047733
11,1.766939520612049,11,1.073501824263877
12,1.763938968378407,12,1.076432657475481
13,1.760938141385637,13,1.079364569897047
14,1.757937042831901,14,1.082297561093255
15,1.754935675861983,15,1.085231630491224
16,1.751996108350201,16,1.088109176177671
17,1.748993577150467,17,1.091044982618966
18,1.745990795940373,18,1.093981860111984
19,1.742988549711856,19,1.096919807270574
20,1.739988385653686,20,1.099858822409398
21,1.736988265973021,21,1.102798903639957
22,1.733988190802161,22,1.105740048719285
23,1.730988160198937,23,1.108682255149306
24,1.727924630985505,24,1.111686567929821
25,1.724924074789145,25,1.114631336215928
26,1.721923562935923,26,1.117577159776187
27,1.71892309526702,27,1.120524034594106
28,1.715922937352927,28,1.123471956190716
29,1.712922883790028,29,1.126420919744741
30,1.709922618867472,30,1.129370919915503
31,1.706921744255879,31,1.132321950961991
32,1.703989906620554,32,1.135209283267329
33,1.700990327090562,33,1.138161884556885
34,1.697990793250056,34,1.141115494244234
35,1.694991305178065,35,1.144070104834991
36,1.69199186303665,36,1.147025708270642
37,1.68899246687676,37,1.149982296069135
38,1.685993116865365,38,1.152939859147962
39,1.68299381309049,39,1.155898387970945
40,1.679916334425508,40,1.158926425242449
41,1.676916009859038,41,1.161887338692603
42,1.673915741226256,42,1.164849186302122
43,1.670915528660653,43,1.167811956164579
44,1.667915372381596,44,1.170775635796119
45,1.664915675649108,45,1.17374021230655
46,1.661916682118982,46,1.176705672223364
47,1.658917735830451,47,1.179672001666662
48,1.656002181914344,48,1.18256677586423
49,1.653003347904972,49,1.185534325419273
50,1.650004561678635,50,1.188502703008604
51,1.64700582335825,51,1.191471893514487
52,1.644007133155183,52,1.194441881391658
53,1.641008491165575,53,1.197412650862588
54,1.638009897608533,54,1.200384185742976
55,1.635011352621933,55,1.20335646964129
56,1.631929371250416,56,1.20640558980617
57,1.628930906148343,57,1.209379759359939
58,1.625932490126519,58,1.212354620138589
59,1.622934123339172,59,1.215330154363285
60,1.619935806031426,60,1.218306344055917
61,1.616937538332386,61,1.221283171257845
62,1.613939320497123,62,1.224260617859073
63,1.610941152699377,63,1.227238665820587
64,1.6080266649448,64,1.230137920986313
65,1.605028616273425,65,1.233116752377035
66,1.602030618403739,66,1.236096142728898
67,1.599032671532506,67,1.239076074848913
68,1.596034775949805,68,1.242056531630401
69,1.593036931829864,69,1.245037496274219
70,1.590039139475716,70,1.248018952102096
71,1.587041399109793,71,1.251000882775381
72,1.583959932404297,72,1.254065227837035
73,1.580962277892326,73,1.257048324099947
74,1.577964676142976,74,1.260031834314039
75,1.574967127407755,75,1.263015743450153
76,1.571969632034131,76,1.266000036844607
77,1.568972190254992,77,1.268984700407067
78,1.565974802435033,78,1.271969720406302
79,1.562977468860099,79,1.274955083671482
80,1.560064122433951,80,1.277857086671153
81,1.5570669179648,81,1.280842939970459
82,1.554069768876124,82,1.283829111649917
83,1.551072675493798,83,1.286815590029027
84,1.548075638242757,84,1.289802363787301
85,1.545078657435809,85,1.292789422159553
86,1.542081733521005,86,1.295776754701784
87,1.539084866870419,87,1.298764351483459
88,1.536003966636223,88,1.301836858496922
89,1.533007195610396,89,1.304825033035246
90,1.530010483106373,90,1.307813436537164
91,1.527013829550793,91,1.310802061215826
92,1.524017235473609,92,1.313790899569573
93,1.521020701296836,93,1.316779944567091
94,1.518024227582402,94,1.31976918939785
95,1.515027814820954,95,1.322758627657885
96,1.512115718850832,96,1.3256631704438
97,1.509119450495536,97,1.328652949671318
98,1.506123244885612,98,1.33164290912175
99,1.503127102585458,99,1.334633043195304
100,1.500131024268472,100,1.337623346481953
101,1.497135010506218,101,1.340613813951224
102,1.494139062016389,102,1.343604440701984
103,1.491143179452113,103,1.346595222153345
104,1.488062940055211,104,1.349671354400203
105,1.485067170236337,105,1.352662433581722
106,1.482071468549278,106,1.355653652681984
107,1.479075835757313,107,1.358645008132893
108,1.476080272741738,108,1.36163649644576
109,1.473084780291971,109,1.364628114407943
110,1.470089359353512,110,1.367619858835021
111,1.467094010818291,111,1.37061172676861
112,1.464183330757029,112,1.373518556073647
113,1.461188151519351,113,1.376510674283396
114,1.458193047721337,114,1.379502908812601
115,1.45519802040088,115,1.382495257099422
116,1.452203070726488,116,1.38548771661127
117,1.449208199788777,117,1.388480285045678
118,1.446213408848359,118,1.391472960082881
119,1.443218699127706,119,1.394465739587601
120,1.440139305447268,120,1.397543661916706
121,1.437144741000013,121,1.400536626273877
122,1.434150262010131,122,1.403529688616313
123,1.431155869943558,123,1.406522847200924
124,1.428161566418898,124,1.409516100269104
125,1.425167353001201,125,1.412509446251711
126,1.422173231450196,126,1.415502883522487
127,1.419179203514667,127,1.418496410603586
128,1.418496409783947,128,1.419179204309707
129,1.415502882697001,129,1.422173232239526
130,1.412509445420401,130,1.425167353784793
131,1.409516099431991,131,1.428161567196726
132,1.406522846358029,132,1.431155870715597
133,1.403529687767663,133,1.434150262776356
134,1.400536625419494,134,1.437144741760403
135,1.397543661056617,135,1.440139306201799
136,1.394465738722119,136,1.443218699876561
137,1.391472959211759,137,1.446213409591313
138,1.388480284168948,138,1.449208200525811
139,1.385487715728963,139,1.452203071457584
140,1.382495256211573,140,1.455198021126021
141,1.379502907919244,141,1.458193048440506
142,1.376510673384568,142,1.461188152232533
143,1.373518555169388,143,1.464183331464208
144,1.370611725858543,144,1.467094011519257
145,1.367619857919581,145,1.470089360048447
146,1.364628113487173,146,1.473084780980861
147,1.361636495519704,147,1.476080273424569
148,1.358645007201599,148,1.479075836434073
149,1.355653651745501,149,1.482071469219955
150,1.352662432640102,150,1.48506717090092
151,1.349671353453499,151,1.488062940713687
152,1.346595221202305,152,1.491143180104668
153,1.343604439746027,153,1.494139062662818
154,1.340613812990416,154,1.497135011146511
155,1.337623345516367,155,1.500131024902619
156,1.334633042225014,156,1.503127103213449
157,1.331642908146834,157,1.50612324550744
158,1.328652948691858,158,1.509119451111192
159,1.325663169459885,159,1.512115719460308
160,1.322758626668374,160,1.51502781542404
161,1.319769188403975,161,1.518024228179292
162,1.316779943568947,162,1.521020701887522
163,1.313790898567259,163,1.524017236058084
164,1.310802060209444,164,1.52701383012905
165,1.307813435526825,165,1.530010483678406
166,1.304825032021065,166,1.533007196176198
167,1.301836857479018,167,1.536003967195789
168,1.298764350464188,168,1.539084867423949
169,1.295776753679215,169,1.542081734068287
170,1.292789421133835,170,1.545078657976839
171,1.289802362758588,171,1.548075638777528
172,1.286815588997482,172,1.551072676022305
173,1.283829110615708,173,1.554069769398363
174,1.280842938933762,174,1.557066918480766
175,1.277857085632149,175,1.560064122943639
176,1.274955082626564,176,1.56297746936329
177,1.271969719359231,177,1.565974802931936
178,1.268984699358038,178,1.568972190745603
179,1.266000035793824,179,1.571969632518446
180,1.263015742397827,180,1.574967127885771
181,1.260031833260387,181,1.577964676614688
182,1.257048323045193,182,1.580962278357731
183,1.254065226781409,183,1.583959932863391
184,1.251000881724837,184,1.587041399562795
185,1.248018951051398,185,1.590039139922401
186,1.245037495223611,186,1.593036932270229
187,1.242056530580129,187,1.596034776383847
188,1.239076073799227,188,1.599032671960222
189,1.23609614168005,189,1.602030618825126
190,1.23311675132928,190,1.60502861668848
191,1.230137919939905,191,1.60802666535352
192,1.227238664768316,192,1.610941153101531
193,1.224260616808479,193,1.613939320892936
194,1.221283170209194,194,1.616937538721856
195,1.218306343009474,195,1.61993580641455
196,1.215330153319314,196,1.622934123715948
197,1.212354619097351,197,1.625932490496945
198,1.209379758321693,198,1.628930906512416
199,1.206405588771171,199,1.631929371608135
200,1.203356468618441,200,1.63501135297353
201,1.200384184723977,201,1.638009897953772
202,1.197412649847669,202,1.641008491504453
203,1.194441880381048,203,1.644007133487699
204,1.191471892508408,204,1.647005823684403
205,1.18850270200727,205,1.650004561998421
206,1.185534324422895,206,1.653003348218392
207,1.18256677487301,207,1.656002182221394
208,1.179672000671581,208,1.65891773613089
209,1.176705671233791,209,1.661916682413047
210,1.173740211322673,210,1.664915675936799
211,1.170775634818117,211,1.667915372646364
212,1.167811955192623,212,1.670915528919008
213,1.164849185336374,213,1.673915741478198
214,1.161887337733216,214,1.676916010104564
215,1.158926424289566,215,1.679916334664616
216,1.155898387033989,216,1.682993813340147
217,1.152939858217754,217,1.685993117108638
218,1.149982295145786,218,1.688992467113648
219,1.147025707354255,219,1.691991863267152
220,1.144070103925659,220,1.694991305402179
221,1.141115493342042,221,1.697990793467781
222,1.13816188366191,222,1.700990327301898
223,1.135209282379637,223,1.703989906825499
224,1.132321950072613,224,1.706921744437169
225,1.129370919033567,225,1.709922619042332
226,1.126420918870292,226,1.71292288397367
227,1.123471955323793,227,1.71592293753025
228,1.120524033734737,228,1.718923095432528
229,1.117577158924397,229,1.721923563095051
230,1.114631335371731,230,1.724924074941883
231,1.111686567093227,231,1.727924631131852
232,1.108682254328881,232,1.730988160346319
233,1.105740047906394,233,1.733988190943142
234,1.10279890283459,234,1.736988266107601
235,1.099858821611538,235,1.739988385781863
236,1.096919806480201,236,1.74298854983363
237,1.093981859329072,237,1.745990796012181
238,1.091044981843485,238,1.748993577218217
239,1.088109175409586,239,1.751996108413901
240,1.085231629722504,240,1.75493567593373
241,1.082297560331928,241,1.757937042899655
242,1.07936456914307,242,1.760938141449405
243,1.076432656728807,243,1.763938968438197
244,1.073501823524456,244,1.76693952066787
245,1.070572069745112,245,1.769939795052276
246,1.067643395509979,246,1.772939788425847
247,1.064715800761859,247,1.775939497706068
248,1.061735243238698,248,1.779007106487554
249,1.058810180593262,249,1.782006961098199
250,1.055886192245522,250,1.785006530787992
251,1.052963277707232,251,1.788005812535931
252,1.050041436440407,252,1.791004803274915
253,1.047120667793953,253,1.794003377216977
254,1.044200971094229,254,1.797001701407168
255,1.041282345584196,255,1.79999999955407
